Title: kicad schematic
Date: Tue Apr 14 16:57:05  2026
Plotname: Transient Analysis
Flags: real
No. Variables: 42
No. Points: 2817    
Variables:
	0	time	time
	1	v(net-_c2-pad1_)	voltage
	2	v(vcc)	voltage
	3	v(net-_r1-pad2_)	voltage
	4	v(net-_v1-pad1_)	voltage
	5	v(net-_c1-pad1_)	voltage
	6	v(x1.18)	voltage
	7	v(x1.23)	voltage
	8	v(x1.9)	voltage
	9	v(x1.2)	voltage
	10	v(x1.20)	voltage
	11	v(x1.17)	voltage
	12	v(x1.19)	voltage
	13	v(x1.11)	voltage
	14	v(x1.12)	voltage
	15	v(net-_x1-pad3_)	voltage
	16	v(net-_d4-pad1_)	voltage
	17	v(net-_d3-pad1_)	voltage
	18	v(net-_d6-pad1_)	voltage
	19	v(net-_d5-pad1_)	voltage
	20	v(net-_r8-pad1_)	voltage
	21	v(net-_d2-pad1_)	voltage
	22	v(net-_r9-pad1_)	voltage
	23	v(net-_r7-pad1_)	voltage
	24	v(net-_d1-pad1_)	voltage
	25	v(net-_r5-pad1_)	voltage
	26	v(net-_r4-pad1_)	voltage
	27	v(net-_r6-pad1_)	voltage
	28	v(q.x1.q1#collCX)	voltage
	29	i(e.x1.e1)	current
	30	i(e.x1.e2)	current
	31	i(vv1)	current
	32	i(a.x1.a4)	current
	33	i(a.x1.a3)	current
	34	i(a2)	current
	35	i(a2)	current
	36	i(a2)	current
	37	i(a2)	current
	38	i(a2)	current
	39	i(a2)	current
	40	i(a.x1.a6)	current
	41	i(a.x1.a5)	current
Values:
0		0.000000000000000e+00
	1.294572512782876e-05
	4.128307110819178e-06
	4.130671934326595e-03
	0.000000000000000e+00
	4.089895561183176e-03
	-4.078324792628476e+01
	1.157076855469997e-05
	5.000000000000000e+00
	1.786005793248545e+00
	-4.078324792628476e+01
	4.076949836055347e+01
	4.076949836055347e+01
	5.000000000000000e+00
	0.000000000000000e+00
	5.000000000000000e+00
	4.200919697779143e-169
	4.200896749845746e-169
	4.200896749845746e-169
	4.200896749845746e-169
	0.000000000000000e+00
	4.200896749845746e-169
	0.000000000000000e+00
	5.000000000000000e+00
	1.827542823198692e+00
	0.000000000000000e+00
	0.000000000000000e+00
	0.000000000000000e+00
	4.134802555591125e-03
	0.000000000000000e+00
	0.000000000000000e+00
	4.128307110819178e-06
	0.000000000000000e+00
	0.000000000000000e+00
	-3.172457176801308e-03
	4.200896749845746e-172
	4.200896749845746e-172
	4.200919697779144e-172
	4.200896749845746e-172
	4.200896749845746e-172
	-2.142662804500970e-03
	0.000000000000000e+00
1		1.000000000000001e-08
	3.091879928219511e-05
	8.989651484191168e-02
	4.384475962102864e-03
	9.000000000000001e-02
	4.089895586577050e-03
	-4.069349500060876e+01
	2.054608651617365e-05
	5.000000000000000e+00
	1.786127535576946e+00
	-4.069349500060876e+01
	4.058976787294855e+01
	4.058976787294855e+01
	5.000000000000000e+00
	0.000000000000000e+00
	5.000000000000000e+00
	9.704596065470830e-170
	9.704543053164780e-170
	9.704543053164780e-170
	9.704543053164780e-170
	0.000000000000000e+00
	9.704543053164780e-170
	0.000000000000000e+00
	5.000000000000000e+00
	1.827542823198692e+00
	0.000000000000000e+00
	0.000000000000000e+00
	0.000000000000000e+00
	4.298993381260607e-03
	0.000000000000000e+00
	0.000000000000000e+00
	-1.034851580883345e-04
	0.000000000000000e+00
	0.000000000000000e+00
	-3.172457176801308e-03
	9.704543053164781e-173
	9.704543053164781e-173
	9.704596065470830e-173
	9.704543053164781e-173
	9.704543053164781e-173
	-2.142581642948702e-03
	0.000000000000000e+00
2		1.014884407823143e-08
	3.119029968501764e-05
	9.123450966931171e-02
	4.388138772103954e-03
	9.133959670408283e-02
	4.089895586960477e-03
	-4.069213919718320e+01
	2.068166724215672e-05
	5.000000000000000e+00
	1.786129262000729e+00
	-4.069213919718320e+01
	4.058705287275459e+01
	4.058705287275459e+01
	5.000000000000000e+00
	0.000000000000000e+00
	5.000000000000000e+00
	8.788323671222480e-170
	8.788275664143727e-170
	8.788275664143727e-170
	8.788275664143727e-170
	0.000000000000000e+00
	8.788275664143727e-170
	0.000000000000000e+00
	5.000000000000000e+00
	1.827542823198692e+00
	0.000000000000000e+00
	0.000000000000000e+00
	0.000000000000000e+00
	4.301322225525261e-03
	0.000000000000000e+00
	0.000000000000000e+00
	-1.050870347711202e-04
	0.000000000000000e+00
	0.000000000000000e+00
	-3.172457176801308e-03
	8.788275664143726e-173
	8.788275664143726e-173
	8.788323671222480e-173
	8.788275664143726e-173
	8.788275664143726e-173
	-2.142580491999513e-03
	0.000000000000000e+00
3		1.044653223469428e-08
	3.174126412989938e-05
	9.391049943301641e-02
	4.395571834704550e-03
	9.401879011224849e-02
	4.089895587738401e-03
	-4.068938782195707e+01
	2.095680554269432e-05
	5.000000000000000e+00
	1.786132794649021e+00
	-4.068938782195707e+01
	4.058154323608502e+01
	4.058154323608502e+01
	5.000000000000000e+00
	0.000000000000000e+00
	5.000000000000000e+00
	6.627408798747328e-170
	6.627372595876856e-170
	6.627372595876856e-170
	6.627372595876856e-170
	0.000000000000000e+00
	6.627372595876856e-170
	0.000000000000000e+00
	5.000000000000000e+00
	1.827542823198692e+00
	0.000000000000000e+00
	0.000000000000000e+00
	0.000000000000000e+00
	4.306087474730935e-03
	0.000000000000000e+00
	0.000000000000000e+00
	-1.082906792320842e-04
	0.000000000000000e+00
	0.000000000000000e+00
	-3.172457176801308e-03
	6.627372595876856e-173
	6.627372595876856e-173
	6.627408798747328e-173
	6.627372595876856e-173
	6.627372595876856e-173
	-2.142578136900652e-03
	0.000000000000000e+00
4		1.104190854761998e-08
	3.289097442970764e-05
	9.926247933538153e-02
	4.410803809285674e-03
	9.937717692857979e-02
	4.089895589361760e-03
	-4.068364646338983e+01
	2.153094302277755e-05
	5.000000000000000e+00
	1.786140131364520e+00
	-4.068364646338983e+01
	4.057004614932053e+01
	4.057004614932053e+01
	5.000000000000000e+00
	0.000000000000000e+00
	5.000000000000000e+00
	2.097707644601768e-170
	2.097696185665725e-170
	2.097696185665725e-170
	2.097696185665725e-170
	0.000000000000000e+00
	2.097696185665725e-170
	0.000000000000000e+00
	5.000000000000000e+00
	1.827542823198691e+00
	0.000000000000000e+00
	0.000000000000000e+00
	0.000000000000000e+00
	4.315984224581570e-03
	0.000000000000000e+00
	0.000000000000000e+00
	-1.146975931982652e-04
	0.000000000000000e+00
	0.000000000000000e+00
	-3.172457176801309e-03
	2.097696185665725e-173
	2.097696185665725e-173
	2.097707644601768e-173
	2.097696185665725e-173
	2.097696185665725e-173
	-2.142573245756986e-03
	0.000000000000000e+00
5		1.223266117347139e-08
	3.538151640261691e-05
	1.099664395304591e-01
	4.441620349995616e-03
	1.100939505612424e-01
	4.089895592882806e-03
	-4.067120933514605e+01
	2.277465936820171e-05
	5.000000000000000e+00
	1.786155064191054e+00
	-4.067120933514605e+01
	4.054514076480189e+01
	4.054514076480189e+01
	5.000000000000000e+00
	0.000000000000000e+00
	5.000000000000000e+00
	-5.810180290687485e-170
	-5.810148552011983e-170
	-5.810148552011983e-170
	-5.810148552011983e-170
	0.000000000000000e+00
	-5.810148552011983e-170
	0.000000000000000e+00
	5.000000000000000e+00
	1.827542823198691e+00
	0.000000000000000e+00
	0.000000000000000e+00
	0.000000000000000e+00
	4.336130703290864e-03
	0.000000000000000e+00
	0.000000000000000e+00
	-1.275110307832616e-04
	0.000000000000000e+00
	0.000000000000000e+00
	-3.172457176801309e-03
	-5.810148552011983e-173
	-5.810148552011983e-173
	-5.810180290687486e-173
	-5.810148552011983e-173
	-5.810148552011983e-173
	-2.142563290539297e-03
	0.000000000000000e+00
6		1.461416642517419e-08
	4.112705164903099e-05
	1.313743601199227e-01
	4.503300088633839e-03
	1.315274978265676e-01
	4.089895601027031e-03
	-4.064251760501888e+01
	2.564384052514285e-05
	5.000000000000000e+00
	1.786184953078943e+00
	-4.064251760501888e+01
	4.048768549378000e+01
	4.048768549378000e+01
	5.000000000000000e+00
	0.000000000000000e+00
	5.000000000000000e+00
	-1.548717780721113e-169
	-1.548709320698706e-169
	-1.548709320698706e-169
	-1.548709320698706e-169
	0.000000000000000e+00
	-1.548709320698706e-169
	0.000000000000000e+00
	5.000000000000000e+00
	1.827542823198691e+00
	0.000000000000000e+00
	0.000000000000000e+00
	0.000000000000000e+00
	4.376470369051311e-03
	0.000000000000000e+00
	0.000000000000000e+00
	-1.531377066449346e-04
	0.000000000000000e+00
	0.000000000000000e+00
	-3.172457176801309e-03
	-1.548709320698706e-172
	-1.548709320698706e-172
	-1.548717780721113e-172
	-1.548709320698706e-172
	-1.548709320698706e-172
	-2.142543364614038e-03
	0.000000000000000e+00
7		1.937717692857979e-08
	5.567565374323100e-05
	1.741902017272274e-01
	4.626476951292116e-03
	1.743945923572180e-01
	4.089895621721470e-03
	-4.056986561647794e+01
	3.290906007367523e-05
	5.000000000000000e+00
	1.786244549621945e+00
	-4.056986561647794e+01
	4.034219967978239e+01
	4.034219967978239e+01
	5.000000000000000e+00
	0.000000000000000e+00
	5.000000000000000e+00
	-1.943442059221760e-169
	-1.943431442978576e-169
	-1.943431442978576e-169
	-1.943431442978576e-169
	0.000000000000000e+00
	-1.943431442978576e-169
	0.000000000000000e+00
	5.000000000000000e+00
	1.827542823198691e+00
	0.000000000000000e+00
	0.000000000000000e+00
	0.000000000000000e+00
	4.456966884649138e-03
	0.000000000000000e+00
	0.000000000000000e+00
	-2.043906299906140e-04
	0.000000000000000e+00
	0.000000000000000e+00
	-3.172457176801310e-03
	-1.943431442978576e-172
	-1.943431442978576e-172
	-1.943442059221760e-172
	-1.943431442978576e-172
	-1.943431442978576e-172
	-2.142503633585370e-03
	0.000000000000000e+00
8		2.890319793539100e-08
	9.700079585804123e-05
	2.598218867771472e-01
	4.872222601773209e-03
	2.601287814185189e-01
	4.089895680702111e-03
	-4.036349845466258e+01
	5.354583523585342e-05
	5.000000000000000e+00
	1.786363112662887e+00
	-4.036349845466258e+01
	3.992894884844070e+01
	3.992894884844070e+01
	5.000000000000000e+00
	0.000000000000000e+00
	5.000000000000000e+00
	-1.057002254017796e-169
	-1.056996480037690e-169
	-1.056996480037690e-169
	-1.056996480037690e-169
	0.000000000000000e+00
	-1.056996480037690e-169
	0.000000000000000e+00
	5.000000000000000e+00
	1.827542823198691e+00
	0.000000000000000e+00
	0.000000000000000e+00
	0.000000000000000e+00
	4.617351170289941e-03
	0.000000000000000e+00
	0.000000000000000e+00
	-3.068946413716800e-04
	0.000000000000000e+00
	0.000000000000000e+00
	-3.172457176801309e-03
	-1.056996480037690e-172
	-1.056996480037690e-172
	-1.057002254017796e-172
	-1.056996480037690e-172
	-1.056996480037690e-172
	-2.142424591558076e-03
	0.000000000000000e+00
9		4.795523994901343e-08
	2.285453296163200e-04
	4.310852641841153e-01
	5.361250949671316e-03
	4.315971595411206e-01
	4.089895868781557e-03
	-3.970659879124491e+01
	1.192359896570656e-04
	5.000000000000000e+00
	1.786597725363577e+00
	-3.970659879124491e+01
	3.861350539165237e+01
	3.861350539165237e+01
	5.000000000000000e+00
	0.000000000000000e+00
	5.000000000000000e+00
	4.114857385038086e-171
	4.114834907245486e-171
	4.114834907245486e-171
	4.114834907245486e-171
	0.000000000000000e+00
	4.114834907245486e-171
	0.000000000000000e+00
	5.000000000000000e+00
	1.827542823198691e+00
	0.000000000000000e+00
	0.000000000000000e+00
	0.000000000000000e+00
	4.935654071944962e-03
	0.000000000000000e+00
	0.000000000000000e+00
	-5.118953570052986e-04
	0.000000000000000e+00
	0.000000000000000e+00
	-3.172457176801309e-03
	4.114834907245486e-174
	4.114834907245486e-174
	4.114857385038086e-174
	4.114834907245486e-174
	4.114834907245486e-174
	-2.142268183090948e-03
	0.000000000000000e+00
10		8.605932397625828e-08
	6.870714681264015e-04
	7.736120485935956e-01
	6.329851290130510e-03
	7.745339157863240e-01
	4.089896523491121e-03
	-3.741683684821893e+01
	3.482128386692281e-04
	5.000000000000000e+00
	1.787057410316122e+00
	-3.741683684821893e+01
	3.402825055364720e+01
	3.402825055364720e+01
	5.000000000000000e+00
	0.000000000000000e+00
	5.000000000000000e+00
	5.653374076400339e-172
	5.653343194269841e-172
	5.653343194269841e-172
	5.653343194269841e-172
	0.000000000000000e+00
	5.653343194269841e-172
	0.000000000000000e+00
	5.000000000000000e+00
	1.827542823198690e+00
	0.000000000000000e+00
	0.000000000000000e+00
	0.000000000000000e+00
	5.562793088303708e-03
	0.000000000000000e+00
	0.000000000000000e+00
	-9.218671927284650e-04
	0.000000000000000e+00
	0.000000000000000e+00
	-3.172457176801310e-03
	5.653343194269842e-175
	5.653343194269842e-175
	5.653374076400339e-175
	5.653343194269842e-175
	5.653343194269842e-175
	-2.141961726455918e-03
	0.000000000000000e+00
11		1.622674920307480e-07
	2.384754054969017e-03
	1.458665737903885e+00
	8.231561827484175e-03
	1.460407428276731e+00
	4.089898932774200e-03
	-2.893904524633899e+01
	1.195994408140300e-03
	5.000000000000000e+00
	1.787941859314737e+00
	-2.893904524633899e+01
	1.705144877805183e+01
	1.705144877805183e+01
	5.000000000000000e+00
	0.000000000000000e+00
	5.000000000000000e+00
	-2.549909101371810e-174
	-2.549895172244642e-174
	-2.549895172244642e-174
	-2.549895172244642e-174
	0.000000000000000e+00
	-2.549895172244642e-174
	0.000000000000000e+00
	5.000000000000000e+00
	1.827542823198690e+00
	0.000000000000000e+00
	0.000000000000000e+00
	0.000000000000000e+00
	6.781541817697245e-03
	0.000000000000000e+00
	0.000000000000000e+00
	-1.741690372845994e-03
	0.000000000000000e+00
	0.000000000000000e+00
	-3.172457176801311e-03
	-2.549895172244642e-177
	-2.549895172244642e-177
	-2.549909101371811e-177
	-2.549895172244642e-177
	-2.549895172244642e-177
	-2.141372093790175e-03
	0.000000000000000e+00
12		3.146838281397274e-07
	8.893719697955892e-03
	2.828773612385424e+00
	1.190871880275600e-02
	2.832154453257544e+00
	4.089908049770720e-03
	3.565061664991021e+00
	4.446414216269822e-03
	5.000000000000000e+00
	1.789591765702403e+00
	3.565061664991021e+00
	-4.803811648185172e+01
	-4.803811648185172e+01
	0.000000000000000e+00
	3.565061664991021e+00
	5.000000000000000e+00
	-8.917227746634305e-233
	-8.917179035233447e-233
	-8.917179035233447e-233
	-8.917179035233447e-233
	0.000000000000000e+00
	-8.917179035233447e-233
	0.000000000000000e+00
	5.000000000000000e+00
	1.827542823198689e+00
	0.000000000000000e+00
	0.000000000000000e+00
	0.000000000000000e+00
	9.092635790248632e-03
	0.000000000000000e+00
	0.000000000000000e+00
	-3.380840872120316e-03
	0.000000000000000e+00
	0.000000000000000e+00
	-3.172457176801311e-03
	-8.917179035233447e-236
	-8.917179035233447e-236
	-8.917227746634305e-236
	-8.917179035233447e-236
	-8.917179035233447e-236
	-2.140272156198398e-03
	0.000000000000000e+00
13		3.156858281397274e-07
	8.950230127619262e-03
	2.837780838685286e+00
	1.193238813730520e-02
	2.841172453257545e+00
	4.089908128494441e-03
	3.847260277804637e+00
	4.474634156274905e-03
	5.000000000000000e+00
	1.789602141182792e+00
	3.847260277804637e+00
	-4.860321999124821e+01
	-4.860321999124821e+01
	0.000000000000000e+00
	3.847260277804637e+00
	5.000000000000000e+00
	1.436727828502615e-176
	1.436719980236356e-176
	1.436719980236356e-176
	1.436719980236356e-176
	0.000000000000000e+00
	1.436719980236356e-176
	0.000000000000000e+00
	5.000000000000000e+00
	1.827542823198689e+00
	0.000000000000000e+00
	0.000000000000000e+00
	0.000000000000000e+00
	9.107323934758105e-03
	0.000000000000000e+00
	0.000000000000000e+00
	-3.391614572259005e-03
	0.000000000000000e+00
	0.000000000000000e+00
	-3.172457176801311e-03
	1.436719980236356e-179
	1.436719980236356e-179
	1.436727828502615e-179
	1.436719980236356e-179
	1.436719980236356e-179
	-2.140265239211472e-03
	0.000000000000000e+00
14		3.157858281397274e-07
	8.955880594051226e-03
	2.838679686238540e+00
	1.185742836206265e-02
	2.842072453257545e+00
	4.089908136288228e-03
	3.875477260797851e+00
	4.477455862368013e-03
	4.519999999999964e+00
	1.669544958685499e+00
	3.875477260797851e+00
	-4.865972457762998e+01
	-4.865972457762998e+01
	0.000000000000000e+00
	3.875477260797851e+00
	5.000000000000000e+00
	1.529209448742812e-176
	1.529201095286638e-176
	1.529201095286638e-176
	1.529201095286638e-176
	0.000000000000000e+00
	1.529201095286638e-176
	0.000000000000000e+00
	5.000000000000000e+00
	1.827542823198689e+00
	0.000000000000000e+00
	0.000000000000000e+00
	0.000000000000000e+00
	9.031382856208747e-03
	0.000000000000000e+00
	0.000000000000000e+00
	-3.392767019005039e-03
	0.000000000000000e+00
	0.000000000000000e+00
	-3.172457176801311e-03
	1.529201095286638e-179
	1.529201095286638e-179
	1.529209448742812e-179
	1.529201095286638e-179
	1.529201095286638e-179
	-1.900303360876310e-03
	0.000000000000000e+00
15		3.159858281397274e-07
	8.967185088071667e-03
	2.840477256555345e+00
	1.158256864907739e-02
	2.843872453257545e+00
	4.089908151601027e-03
	3.931929013081700e+00
	4.483101052909198e-03
	3.559999999999892e+00
	1.429336201131729e+00
	3.931929013081700e+00
	-4.877276936470640e+01
	-4.877276936470640e+01
	0.000000000000000e+00
	3.931929013081700e+00
	5.000000000000000e+00
	1.658949505971340e-176
	1.658940443797351e-176
	1.658940443797351e-176
	1.658940443797351e-176
	0.000000000000000e+00
	1.658940443797351e-176
	0.000000000000000e+00
	5.000000000000000e+00
	1.827542823198689e+00
	0.000000000000000e+00
	0.000000000000000e+00
	0.000000000000000e+00
	8.754423227220864e-03
	0.000000000000000e+00
	0.000000000000000e+00
	-3.395196702199677e-03
	0.000000000000000e+00
	0.000000000000000e+00
	-3.172457176801311e-03
	1.658940443797351e-179
	1.658940443797351e-179
	1.658949505971340e-179
	1.658940443797351e-179
	1.658940443797351e-179
	-1.420442532578775e-03
	0.000000000000000e+00
16		3.163858281397275e-07
	8.989815440871341e-03
	2.844071884225920e+00
	1.051926635836313e-02
	2.847472453257545e+00
	4.089908179550812e-03
	4.044939234805071e+00
	4.494402103031319e-03
	1.639999999999748e+00
	9.485275069033217e-01
	4.044939234805071e+00
	-4.899907261320529e+01
	-4.899907261320529e+01
	0.000000000000000e+00
	4.044939234805071e+00
	5.000000000000000e+00
	1.798680513960137e-176
	1.798670688491467e-176
	1.798670688491467e-176
	1.798670688491467e-176
	0.000000000000000e+00
	1.798670688491467e-176
	0.000000000000000e+00
	5.000000000000000e+00
	1.827542823198689e+00
	0.000000000000000e+00
	0.000000000000000e+00
	0.000000000000000e+00
	7.686356676313455e-03
	0.000000000000000e+00
	0.000000000000000e+00
	-3.400569031624556e-03
	0.000000000000000e+00
	0.000000000000000e+00
	-3.172457176801311e-03
	1.798670688491467e-179
	1.798670688491467e-179
	1.798680513960137e-179
	1.798670688491467e-179
	1.798670688491467e-179
	-4.609816620642842e-04
	0.000000000000000e+00
17		3.166858281397274e-07
	9.006806897759786e-03
	2.846767575954142e+00
	9.442426361414305e-03
	2.850172453257545e+00
	4.089908197303385e-03
	4.129790277917671e+00
	4.502887225095152e-03
	2.000000000000000e-01
	5.877047405013198e-01
	4.129790277917671e+00
	-4.916898700456401e+01
	-4.916898700456401e+01
	0.000000000000000e+00
	4.129790277917671e+00
	5.000000000000000e+00
	1.812954222931637e-176
	1.812944319490964e-176
	1.812944319490964e-176
	1.812944319490964e-176
	0.000000000000000e+00
	1.812944319490964e-176
	0.000000000000000e+00
	5.000000000000000e+00
	1.827542823198688e+00
	0.000000000000000e+00
	0.000000000000000e+00
	0.000000000000000e+00
	6.605636463637987e-03
	0.000000000000000e+00
	0.000000000000000e+00
	-3.404877303403442e-03
	0.000000000000000e+00
	0.000000000000000e+00
	-3.172457176801312e-03
	1.812944319490964e-179
	1.812944319490964e-179
	1.812954222931637e-179
	1.812944319490964e-179
	1.812944319490964e-179
	2.584698270008799e-04
	0.000000000000000e+00
18		3.167658281397274e-07
	9.011341228355554e-03
	2.847486456835262e+00
	9.185057672781599e-03
	2.850892453257545e+00
	4.089908201400851e-03
	4.152433585787023e+00
	4.505151559979553e-03
	2.000000000000000e-01
	5.875064527659695e-01
	4.152433585787023e+00
